Circuit: * D:\Facultate\An III\Sem1\Proiect SCIA(1)\Etaj1.asc

Direct Newton iteration for .op point succeeded.
Semiconductor Device Operating Points:
                        --- Diodes ---
Name:    d:u1:1      d:u1:15     d:u1:7      d:u1:13     d:u1:12
Model:   u1:dlim     u1:dinp      u1:dp     u1:dbiaot   u1:dbiaot
Id:      3.93e-09   -2.40e-16    8.40e-04   -1.80e-11   -1.80e-11
Vd:      2.75e-02   -2.40e-06    3.60e+01   -1.80e+01   -1.80e+01
Req:     1.43e-07    1.00e-10    1.00e-03    1.00e-12    1.00e-12
CAP:     0.00e+00    0.00e+00    0.00e+00    0.00e+00    0.00e+00

Name:    d:u1:6      d:u1:9      d:u1:10     d:u1:8      d:u1:5
Model:  u1:dlimn2   u1:dbia1    u1:dbia1    u1:dlimp    u1:dlimn1
Id:      6.17e-10   -1.66e-10   -1.66e-10    6.12e-09    2.06e-10
Vd:      6.17e-01   -1.66e+01   -1.66e+01    6.12e-01    6.17e-01
Req:     1.00e-09    1.00e-11    1.00e-11    1.00e-08    3.33e-10
CAP:     0.00e+00    0.00e+00    0.00e+00    0.00e+00    0.00e+00

Name:    d:u1:4
Model:  u1:dbia2
Id:      3.46e-05
Vd:      1.38e+00
Req:     1.00e-03
CAP:     0.00e+00

                        --- VDMOSFET Transistors ---
Name:        m:u1:2      m:u1:1
Model:        u1:pi       u1:ni
Id:         -1.69e-03    1.69e-03
Vgs:        -6.12e-01    6.17e-01
Vds:        -1.80e+01    1.80e+01
Vth:        -3.00e-01    3.00e-01
Gm:          1.09e-02    1.09e-02
Gds:         1.43e-05    1.43e-05
Cgs:         0.00e+00    0.00e+00
Cgd:         0.00e+00    0.00e+00
Cbody:       0.00e+00    0.00e+00


Note: .fourier statements are only valid with a .tran command.
      No Fourier analysis performed.


Date: Thu Jan 18 17:49:25 2024
Total elapsed time: 0.082 seconds.

tnom = 27
temp = 27
method = trap
totiter = 7
traniter = 0
tranpoints = 0
accept = 0
rejected = 0
matrix size = 21
fillins = 5
solver = Normal
Matrix Compiler1:      97 opcodes
Matrix Compiler2: 2.36 KB object code size
